! Touchstone simulation data from EMX version 6.1
! Sun Oct  5 01:02:34 2025
# Hz S RI R 50
2.000000e+10 7.271666e-01 -2.492502e-01 1.034479e-02 -8.239659e-02 1.034479e-02 -8.239659e-02 7.271656e-01 -2.492525e-01
2.161616e+10 7.141496e-01 -2.579518e-01 2.718807e-03 -7.907221e-02 2.718807e-03 -7.907221e-02 7.141485e-01 -2.579542e-01
2.323232e+10 7.017585e-01 -2.658649e-01 -3.983089e-03 -7.526068e-02 -3.983089e-03 -7.526068e-02 7.017572e-01 -2.658674e-01
2.484848e+10 6.899653e-01 -2.731353e-01 -9.810962e-03 -7.111809e-02 -9.810962e-03 -7.111809e-02 6.899639e-01 -2.731380e-01
2.646465e+10 6.787306e-01 -2.798813e-01 -1.482645e-02 -6.677103e-02 -1.482645e-02 -6.677103e-02 6.787291e-01 -2.798841e-01
2.808081e+10 6.680096e-01 -2.861976e-01 -1.909660e-02 -6.232059e-02 -1.909660e-02 -6.232059e-02 6.680079e-01 -2.862005e-01
2.969697e+10 6.577561e-01 -2.921590e-01 -2.268966e-02 -5.784632e-02 -2.268966e-02 -5.784632e-02 6.577543e-01 -2.921620e-01
3.131313e+10 6.479250e-01 -2.978244e-01 -2.567236e-02 -5.340999e-02 -2.567236e-02 -5.340999e-02 6.479231e-01 -2.978274e-01
3.292929e+10 6.384740e-01 -3.032396e-01 -2.810824e-02 -4.905882e-02 -2.810824e-02 -4.905882e-02 6.384720e-01 -3.032427e-01
3.454545e+10 6.293643e-01 -3.084403e-01 -3.005673e-02 -4.482827e-02 -3.005673e-02 -4.482827e-02 6.293621e-01 -3.084435e-01
3.616162e+10 6.205609e-01 -3.134541e-01 -3.157273e-02 -4.074436e-02 -3.157273e-02 -4.074436e-02 6.205586e-01 -3.134574e-01
3.777778e+10 6.120327e-01 -3.183023e-01 -3.270647e-02 -3.682558e-02 -3.270647e-02 -3.682558e-02 6.120302e-01 -3.183056e-01
3.939394e+10 6.037521e-01 -3.230014e-01 -3.350361e-02 -3.308441e-02 -3.350361e-02 -3.308441e-02 6.037495e-01 -3.230048e-01
4.101010e+10 5.956953e-01 -3.275642e-01 -3.400547e-02 -2.952860e-02 -3.400547e-02 -2.952860e-02 5.956926e-01 -3.275676e-01
4.262626e+10 5.878413e-01 -3.320006e-01 -3.424928e-02 -2.616219e-02 -3.424928e-02 -2.616219e-02 5.878384e-01 -3.320041e-01
4.424242e+10 5.801720e-01 -3.363184e-01 -3.426853e-02 -2.298626e-02 -3.426853e-02 -2.298626e-02 5.801690e-01 -3.363220e-01
4.585859e+10 5.726718e-01 -3.405239e-01 -3.409325e-02 -1.999965e-02 -3.409325e-02 -1.999965e-02 5.726686e-01 -3.405275e-01
4.747475e+10 5.653270e-01 -3.446222e-01 -3.375032e-02 -1.719941e-02 -3.375032e-02 -1.719941e-02 5.653237e-01 -3.446258e-01
4.909091e+10 5.581261e-01 -3.486172e-01 -3.326379e-02 -1.458128e-02 -3.326379e-02 -1.458128e-02 5.581226e-01 -3.486208e-01
5.070707e+10 5.510588e-01 -3.525126e-01 -3.265511e-02 -1.213999e-02 -3.265511e-02 -1.213999e-02 5.510552e-01 -3.525163e-01
5.232323e+10 5.441166e-01 -3.563114e-01 -3.194343e-02 -9.869496e-03 -3.194343e-02 -9.869496e-03 5.441128e-01 -3.563151e-01
5.393939e+10 5.372917e-01 -3.600164e-01 -3.114579e-02 -7.763270e-03 -3.114579e-02 -7.763270e-03 5.372878e-01 -3.600200e-01
5.555556e+10 5.305778e-01 -3.636299e-01 -3.027733e-02 -5.814411e-03 -3.027733e-02 -5.814411e-03 5.305737e-01 -3.636336e-01
5.717172e+10 5.239689e-01 -3.671544e-01 -2.935152e-02 -4.015805e-03 -2.935152e-02 -4.015805e-03 5.239647e-01 -3.671581e-01
5.878788e+10 5.174602e-01 -3.705921e-01 -2.838026e-02 -2.360231e-03 -2.838026e-02 -2.360231e-03 5.174559e-01 -3.705958e-01
6.040404e+10 5.110473e-01 -3.739451e-01 -2.737412e-02 -8.404534e-04 -2.737412e-02 -8.404534e-04 5.110428e-01 -3.739488e-01
6.202020e+10 5.047261e-01 -3.772155e-01 -2.634239e-02 5.507147e-04 -2.634239e-02 5.507147e-04 5.047215e-01 -3.772192e-01
6.363636e+10 4.984933e-01 -3.804055e-01 -2.529327e-02 1.820352e-03 -2.529327e-02 1.820352e-03 4.984886e-01 -3.804091e-01
6.525253e+10 4.923458e-01 -3.835169e-01 -2.423396e-02 2.975387e-03 -2.423396e-02 2.975387e-03 4.923409e-01 -3.835205e-01
6.686869e+10 4.862807e-01 -3.865519e-01 -2.317074e-02 4.022566e-03 -2.317074e-02 4.022566e-03 4.862757e-01 -3.865555e-01
6.848485e+10 4.802955e-01 -3.895124e-01 -2.210912e-02 4.968429e-03 -2.210912e-02 4.968429e-03 4.802904e-01 -3.895160e-01
7.010101e+10 4.743879e-01 -3.924004e-01 -2.105384e-02 5.819286e-03 -2.105384e-02 5.819286e-03 4.743826e-01 -3.924040e-01
7.171717e+10 4.685558e-01 -3.952179e-01 -2.000903e-02 6.581211e-03 -2.000903e-02 6.581211e-03 4.685503e-01 -3.952214e-01
7.333333e+10 4.627970e-01 -3.979668e-01 -1.897820e-02 7.260028e-03 -1.897820e-02 7.260028e-03 4.627915e-01 -3.979703e-01
7.494949e+10 4.571099e-01 -4.006491e-01 -1.796437e-02 7.861309e-03 -1.796437e-02 7.861309e-03 4.571043e-01 -4.006525e-01
7.656566e+10 4.514927e-01 -4.032664e-01 -1.697007e-02 8.390372e-03 -1.697007e-02 8.390372e-03 4.514869e-01 -4.032698e-01
7.818182e+10 4.459437e-01 -4.058208e-01 -1.599744e-02 8.852280e-03 -1.599744e-02 8.852280e-03 4.459378e-01 -4.058242e-01
7.979798e+10 4.404613e-01 -4.083140e-01 -1.504821e-02 9.251844e-03 -1.504821e-02 9.251844e-03 4.404553e-01 -4.083173e-01
8.141414e+10 4.350442e-01 -4.107478e-01 -1.412380e-02 9.593627e-03 -1.412380e-02 9.593627e-03 4.350380e-01 -4.107510e-01
8.303030e+10 4.296908e-01 -4.131239e-01 -1.322535e-02 9.881951e-03 -1.322535e-02 9.881951e-03 4.296845e-01 -4.131270e-01
8.464646e+10 4.243998e-01 -4.154439e-01 -1.235370e-02 1.012090e-02 -1.235370e-02 1.012090e-02 4.243935e-01 -4.154470e-01
8.626263e+10 4.191700e-01 -4.177095e-01 -1.150949e-02 1.031433e-02 -1.150949e-02 1.031433e-02 4.191635e-01 -4.177125e-01
8.787879e+10 4.140000e-01 -4.199223e-01 -1.069315e-02 1.046588e-02 -1.069315e-02 1.046588e-02 4.139934e-01 -4.199253e-01
8.949495e+10 4.088887e-01 -4.220838e-01 -9.904908e-03 1.057897e-02 -9.904908e-03 1.057897e-02 4.088820e-01 -4.220867e-01
9.111111e+10 4.038348e-01 -4.241955e-01 -9.144864e-03 1.065681e-02 -9.144864e-03 1.065681e-02 4.038280e-01 -4.241983e-01
9.272727e+10 3.988372e-01 -4.262589e-01 -8.412960e-03 1.070242e-02 -8.412960e-03 1.070242e-02 3.988303e-01 -4.262616e-01
9.434343e+10 3.938948e-01 -4.282753e-01 -7.709025e-03 1.071865e-02 -7.709025e-03 1.071865e-02 3.938879e-01 -4.282779e-01
9.595960e+10 3.890066e-01 -4.302461e-01 -7.032781e-03 1.070812e-02 -7.032781e-03 1.070812e-02 3.889995e-01 -4.302487e-01
9.757576e+10 3.841715e-01 -4.321726e-01 -6.383860e-03 1.067334e-02 -6.383860e-03 1.067334e-02 3.841643e-01 -4.321751e-01
9.919192e+10 3.793885e-01 -4.340561e-01 -5.761819e-03 1.061662e-02 -5.761819e-03 1.061662e-02 3.793812e-01 -4.340585e-01
1.008081e+11 3.746565e-01 -4.358978e-01 -5.166149e-03 1.054011e-02 -5.166149e-03 1.054011e-02 3.746492e-01 -4.359001e-01
1.024242e+11 3.699747e-01 -4.376989e-01 -4.596285e-03 1.044584e-02 -4.596285e-03 1.044584e-02 3.699672e-01 -4.377011e-01
1.040404e+11 3.653420e-01 -4.394604e-01 -4.051618e-03 1.033569e-02 -4.051618e-03 1.033569e-02 3.653345e-01 -4.394625e-01
1.056566e+11 3.607577e-01 -4.411836e-01 -3.531501e-03 1.021140e-02 -3.531501e-03 1.021140e-02 3.607501e-01 -4.411856e-01
1.072727e+11 3.562207e-01 -4.428694e-01 -3.035257e-03 1.007460e-02 -3.035257e-03 1.007460e-02 3.562131e-01 -4.428714e-01
1.088889e+11 3.517303e-01 -4.445189e-01 -2.562187e-03 9.926784e-03 -2.562187e-03 9.926784e-03 3.517226e-01 -4.445208e-01
1.105051e+11 3.472855e-01 -4.461331e-01 -2.111574e-03 9.769357e-03 -2.111574e-03 9.769357e-03 3.472777e-01 -4.461349e-01
1.121212e+11 3.428857e-01 -4.477129e-01 -1.682690e-03 9.603607e-03 -1.682690e-03 9.603607e-03 3.428778e-01 -4.477146e-01
1.137374e+11 3.385298e-01 -4.492592e-01 -1.274797e-03 9.430727e-03 -1.274797e-03 9.430727e-03 3.385219e-01 -4.492608e-01
1.153535e+11 3.342173e-01 -4.507730e-01 -8.871553e-04 9.251819e-03 -8.871553e-04 9.251819e-03 3.342094e-01 -4.507745e-01
1.169697e+11 3.299474e-01 -4.522550e-01 -5.190261e-04 9.067898e-03 -5.190261e-04 9.067898e-03 3.299393e-01 -4.522564e-01
1.185859e+11 3.257192e-01 -4.537062e-01 -1.696722e-04 8.879898e-03 -1.696722e-04 8.879898e-03 3.257111e-01 -4.537074e-01
1.202020e+11 3.215321e-01 -4.551272e-01 1.616370e-04 8.688678e-03 1.616370e-04 8.688678e-03 3.215240e-01 -4.551283e-01
1.218182e+11 3.173854e-01 -4.565189e-01 4.756241e-04 8.495023e-03 4.756241e-04 8.495023e-03 3.173772e-01 -4.565199e-01
1.234343e+11 3.132784e-01 -4.578820e-01 7.730013e-04 8.299655e-03 7.730013e-04 8.299655e-03 3.132702e-01 -4.578829e-01
1.250505e+11 3.092105e-01 -4.592172e-01 1.054469e-03 8.103231e-03 1.054469e-03 8.103231e-03 3.092022e-01 -4.592180e-01
1.266667e+11 3.051809e-01 -4.605252e-01 1.320715e-03 7.906352e-03 1.320715e-03 7.906352e-03 3.051726e-01 -4.605259e-01
1.282828e+11 3.011891e-01 -4.618067e-01 1.572410e-03 7.709564e-03 1.572410e-03 7.709564e-03 3.011807e-01 -4.618073e-01
1.298990e+11 2.972344e-01 -4.630623e-01 1.810213e-03 7.513361e-03 1.810213e-03 7.513361e-03 2.972260e-01 -4.630629e-01
1.315152e+11 2.933163e-01 -4.642927e-01 2.034764e-03 7.318191e-03 2.034764e-03 7.318191e-03 2.933079e-01 -4.642932e-01
1.331313e+11 2.894342e-01 -4.654985e-01 2.246686e-03 7.124460e-03 2.246686e-03 7.124460e-03 2.894257e-01 -4.654988e-01
1.347475e+11 2.855874e-01 -4.666802e-01 2.446585e-03 6.932528e-03 2.446585e-03 6.932528e-03 2.855789e-01 -4.666804e-01
1.363636e+11 2.817755e-01 -4.678384e-01 2.635050e-03 6.742723e-03 2.635050e-03 6.742723e-03 2.817670e-01 -4.678386e-01
1.379798e+11 2.779979e-01 -4.689737e-01 2.812650e-03 6.555334e-03 2.812650e-03 6.555334e-03 2.779894e-01 -4.689738e-01
1.395960e+11 2.742541e-01 -4.700867e-01 2.979938e-03 6.370618e-03 2.979938e-03 6.370618e-03 2.742455e-01 -4.700866e-01
1.412121e+11 2.705435e-01 -4.711777e-01 3.137447e-03 6.188802e-03 3.137447e-03 6.188802e-03 2.705350e-01 -4.711775e-01
1.428283e+11 2.668657e-01 -4.722474e-01 3.285692e-03 6.010085e-03 3.285692e-03 6.010085e-03 2.668571e-01 -4.722471e-01
1.444444e+11 2.632202e-01 -4.732962e-01 3.425170e-03 5.834640e-03 3.425170e-03 5.834640e-03 2.632116e-01 -4.732958e-01
1.460606e+11 2.596064e-01 -4.743245e-01 3.556360e-03 5.662615e-03 3.556360e-03 5.662615e-03 2.595978e-01 -4.743240e-01
1.476768e+11 2.560240e-01 -4.753330e-01 3.679724e-03 5.494138e-03 3.679724e-03 5.494138e-03 2.560154e-01 -4.753324e-01
1.492929e+11 2.524724e-01 -4.763219e-01 3.795705e-03 5.329315e-03 3.795705e-03 5.329315e-03 2.524638e-01 -4.763212e-01
1.509091e+11 2.489512e-01 -4.772917e-01 3.904730e-03 5.168233e-03 3.904730e-03 5.168233e-03 2.489426e-01 -4.772909e-01
1.525253e+11 2.454601e-01 -4.782429e-01 4.007207e-03 5.010963e-03 4.007207e-03 5.010963e-03 2.454514e-01 -4.782420e-01
1.541414e+11 2.419985e-01 -4.791759e-01 4.103530e-03 4.857560e-03 4.103530e-03 4.857560e-03 2.419898e-01 -4.791748e-01
1.557576e+11 2.385660e-01 -4.800910e-01 4.194075e-03 4.708063e-03 4.194075e-03 4.708063e-03 2.385574e-01 -4.800898e-01
1.573737e+11 2.351622e-01 -4.809886e-01 4.279203e-03 4.562499e-03 4.279203e-03 4.562499e-03 2.351536e-01 -4.809874e-01
1.589899e+11 2.317868e-01 -4.818692e-01 4.359260e-03 4.420883e-03 4.359260e-03 4.420883e-03 2.317782e-01 -4.818678e-01
1.606061e+11 2.284394e-01 -4.827330e-01 4.434576e-03 4.283218e-03 4.434576e-03 4.283218e-03 2.284308e-01 -4.827316e-01
1.622222e+11 2.251195e-01 -4.835805e-01 4.505467e-03 4.149498e-03 4.505467e-03 4.149498e-03 2.251109e-01 -4.835790e-01
1.638384e+11 2.218268e-01 -4.844120e-01 4.572235e-03 4.019708e-03 4.572235e-03 4.019708e-03 2.218182e-01 -4.844103e-01
1.654545e+11 2.185609e-01 -4.852278e-01 4.635167e-03 3.893823e-03 4.635167e-03 3.893823e-03 2.185524e-01 -4.852260e-01
1.670707e+11 2.153216e-01 -4.860282e-01 4.694539e-03 3.771812e-03 4.694539e-03 3.771812e-03 2.153130e-01 -4.860264e-01
1.686869e+11 2.121083e-01 -4.868137e-01 4.750612e-03 3.653637e-03 4.750612e-03 3.653637e-03 2.120998e-01 -4.868117e-01
1.703030e+11 2.089208e-01 -4.875844e-01 4.803636e-03 3.539255e-03 4.803636e-03 3.539255e-03 2.089123e-01 -4.875823e-01
1.719192e+11 2.057588e-01 -4.883407e-01 4.853849e-03 3.428616e-03 4.853849e-03 3.428616e-03 2.057503e-01 -4.883386e-01
1.735354e+11 2.026219e-01 -4.890829e-01 4.901476e-03 3.321667e-03 4.901476e-03 3.321667e-03 2.026134e-01 -4.890807e-01
1.751515e+11 1.995097e-01 -4.898113e-01 4.946734e-03 3.218348e-03 4.946734e-03 3.218348e-03 1.995013e-01 -4.898090e-01
1.767677e+11 1.964221e-01 -4.905261e-01 4.989826e-03 3.118598e-03 4.989826e-03 3.118598e-03 1.964137e-01 -4.905237e-01
1.783838e+11 1.933586e-01 -4.912277e-01 5.030946e-03 3.022352e-03 5.030946e-03 3.022352e-03 1.933502e-01 -4.912252e-01
1.800000e+11 1.903190e-01 -4.919163e-01 5.070278e-03 2.929542e-03 5.070278e-03 2.929542e-03 1.903107e-01 -4.919137e-01
